time	V(x)	V(z)	-V(yn)
0.000000000000000e+00	1.000000e+00	1.000000e+00	1.000000e+00
9.999999717180685e-10	9.999999e-01	1.003933e+00	1.008021e+00
1.999999943436137e-09	9.999999e-01	1.007634e+00	1.015567e+00
3.999999886872274e-09	9.999998e-01	1.014599e+00	1.029768e+00
7.999999773744548e-09	9.999996e-01	1.026195e+00	1.053413e+00
1.599999954748910e-08	9.999994e-01	1.042400e+00	1.086457e+00
2.640029814041563e-08	9.999993e-01	1.054289e+00	1.110698e+00
3.824281231998264e-08	9.999993e-01	1.060932e+00	1.124244e+00
5.073750544003637e-08	9.999993e-01	1.064093e+00	1.130690e+00
6.627612267046841e-08	9.999995e-01	1.065698e+00	1.133963e+00
8.590122208437685e-08	9.999998e-01	1.066341e+00	1.135275e+00
1.136170369577372e-07	1.000000e+00	1.066528e+00	1.135658e+00
1.535961261616847e-07	1.000001e+00	1.066546e+00	1.135696e+00
2.218773272727395e-07	1.000002e+00	1.066549e+00	1.135704e+00
3.533353551139687e-07	1.000003e+00	1.066560e+00	1.135728e+00
5.865825231092732e-07	1.000007e+00	1.066579e+00	1.135765e+00
8.304147009213121e-07	1.000010e+00	1.066599e+00	1.135807e+00
1.156955564984787e-06	1.000014e+00	1.066624e+00	1.135861e+00
1.810037293111738e-06	1.000023e+00	1.066677e+00	1.135970e+00
2.858850708331518e-06	1.000037e+00	1.066761e+00	1.136145e+00
4.956477538771078e-06	1.000066e+00	1.066929e+00	1.136496e+00
9.151731199650198e-06	1.000123e+00	1.067266e+00	1.137195e+00
1.754223852140844e-05	1.000239e+00	1.067941e+00	1.138596e+00
3.432325316492491e-05	1.000473e+00	1.069293e+00	1.141394e+00
6.788528245195788e-05	1.000955e+00	1.072011e+00	1.146986e+00
1.350093410260238e-04	1.001969e+00	1.077502e+00	1.158144e+00
2.692574581741556e-04	1.004200e+00	1.088706e+00	1.180364e+00
5.377536924704193e-04	1.009450e+00	1.112008e+00	1.224416e+00
1.074746161062947e-03	1.022956e+00	1.162282e+00	1.311006e+00
2.074746161062947e-03	1.057806e+00	1.269623e+00	1.466763e+00
3.074746161062947e-03	1.103798e+00	1.395956e+00	1.614696e+00
4.074746161062947e-03	1.159044e+00	1.542702e+00	1.753081e+00
5.074746161062947e-03	1.221621e+00	1.710942e+00	1.879138e+00
6.074746161062947e-03	1.289476e+00	1.901069e+00	1.989063e+00
7.074746161062947e-03	1.360347e+00	2.112422e+00	2.078188e+00
8.074746161062947e-03	1.431715e+00	2.342919e+00	2.141256e+00
9.074746161062946e-03	1.500795e+00	2.588746e+00	2.172870e+00
1.007474616106295e-02	1.564575e+00	2.844183e+00	2.168099e+00
1.107474616106295e-02	1.619916e+00	3.101657e+00	2.123214e+00
1.207474616106295e-02	1.663716e+00	3.352098e+00	2.036431e+00
1.307474616106295e-02	1.693124e+00	3.585619e+00	1.908563e+00
1.407474616106295e-02	1.705774e+00	3.792479e+00	1.743353e+00
1.507474616106295e-02	1.700023e+00	3.964172e+00	1.547417e+00
1.607474616106295e-02	1.675122e+00	4.094438e+00	1.329700e+00
1.707474616106295e-02	1.631312e+00	4.179981e+00	1.100544e+00
1.807474616106295e-02	1.569810e+00	4.220723e+00	8.705220e-01
1.907474616106295e-02	1.492677e+00	4.219566e+00	6.493136e-01
2.007474616106296e-02	1.402618e+00	4.181742e+00	4.447968e-01
2.107474616106296e-02	1.302719e+00	4.113927e+00	2.625412e-01
2.119974616106296e-02	1.289620e+00	4.103455e+00	2.416952e-01
2.144974616106296e-02	1.263241e+00	4.081856e+00	2.008247e-01
2.194974616106296e-02	1.209543e+00	4.035071e+00	1.240502e-01
2.196537116106296e-02	1.207846e+00	4.033534e+00	1.217614e-01
2.199662116106296e-02	1.204450e+00	4.030451e+00	1.171968e-01
2.205912116106296e-02	1.197648e+00	4.024239e+00	1.081460e-01
2.206107428606295e-02	1.197435e+00	4.024044e+00	1.078649e-01
2.206498053606296e-02	1.197009e+00	4.023654e+00	1.073029e-01
2.206595709856296e-02	1.196903e+00	4.023556e+00	1.071625e-01
2.206620123918796e-02	1.196876e+00	4.023531e+00	1.071274e-01
2.206626227434421e-02	1.196870e+00	4.023525e+00	1.071186e-01
2.206627753313327e-02	1.196868e+00	4.023524e+00	1.071164e-01
2.206630805071139e-02	1.196865e+00	4.023520e+00	1.071120e-01
2.206636908586764e-02	1.196858e+00	4.023515e+00	1.071033e-01
2.206649115618014e-02	1.196845e+00	4.023502e+00	1.070857e-01
2.206673529680514e-02	1.196818e+00	4.023478e+00	1.070506e-01
2.206674292619968e-02	1.196817e+00	4.023477e+00	1.070495e-01
2.206675818498874e-02	1.196816e+00	4.023476e+00	1.070473e-01
2.206678870256686e-02	1.196812e+00	4.023473e+00	1.070429e-01
2.206684973772311e-02	1.196806e+00	4.023467e+00	1.070342e-01
2.206697180803561e-02	1.196792e+00	4.023454e+00	1.070166e-01
2.206721594866061e-02	1.196766e+00	4.023430e+00	1.069815e-01
2.206727698381686e-02	1.196759e+00	4.023424e+00	1.069727e-01
2.206739905412936e-02	1.196746e+00	4.023412e+00	1.069552e-01
2.206764319475436e-02	1.196719e+00	4.023387e+00	1.069201e-01
2.206813147600436e-02	1.196666e+00	4.023338e+00	1.068499e-01
2.206910803850436e-02	1.196560e+00	4.023241e+00	1.067095e-01
2.207106116350436e-02	1.196347e+00	4.023045e+00	1.064289e-01
2.207496741350436e-02	1.195921e+00	4.022654e+00	1.058680e-01
2.208277991350436e-02	1.195069e+00	4.021871e+00	1.047473e-01
2.209840491350436e-02	1.193365e+00	4.020303e+00	1.025107e-01
2.212965491350436e-02	1.189955e+00	4.017154e+00	9.805728e-02
2.219215491350436e-02	1.183124e+00	4.010812e+00	8.922859e-02
2.231715491350436e-02	1.169428e+00	3.997957e+00	7.188376e-02
2.256715491350436e-02	1.141915e+00	3.971606e+00	3.843993e-02
2.306715491350436e-02	1.086576e+00	3.916705e+00	-2.352433e-02
2.406715491350436e-02	9.758502e-01	3.800715e+00	-1.285637e-01
2.506715491350436e-02	8.667828e-01	3.680060e+00	-2.101545e-01
2.606715491350436e-02	7.613158e-01	3.558606e+00	-2.710911e-01
2.706715491350437e-02	6.609249e-01	3.439106e+00	-3.144906e-01
2.806715491350437e-02	5.666478e-01	3.323359e+00	-3.434817e-01
2.906715491350437e-02	4.791347e-01	3.212413e+00	-3.610004e-01
3.006715491350437e-02	3.987090e-01	3.106752e+00	-3.696729e-01
3.106715491350437e-02	3.254302e-01	3.006470e+00	-3.717665e-01
3.206715491350437e-02	2.591536e-01	2.911413e+00	-3.691844e-01
3.306715491350437e-02	1.995832e-01	2.821280e+00	-3.634878e-01
3.406715491350437e-02	1.463173e-01	2.735701e+00	-3.559329e-01
3.506715491350437e-02	9.888496e-02	2.654286e+00	-3.475130e-01
3.606715491350437e-02	5.677630e-02	2.576659e+00	-3.390004e-01
3.619215491350437e-02	5.190302e-02	2.567235e+00	-3.379601e-01
3.622340491350437e-02	5.068931e-02	2.564882e+00	-3.377006e-01
3.628590491350437e-02	4.827105e-02	2.560182e+00	-3.371828e-01
3.641090491350437e-02	4.348920e-02	2.550823e+00	-3.361548e-01
3.641481116350437e-02	4.334097e-02	2.550532e+00	-3.361228e-01
3.641578772600437e-02	4.330392e-02	2.550459e+00	-3.361149e-01
3.641774085100437e-02	4.322982e-02	2.550313e+00	-3.360989e-01
3.641822913225437e-02	4.321130e-02	2.550277e+00	-3.360949e-01
3.641835120256687e-02	4.320667e-02	2.550267e+00	-3.360939e-01
3.641859534319187e-02	4.319741e-02	2.550249e+00	-3.360919e-01
3.641859629686618e-02	4.319737e-02	2.550249e+00	-3.360919e-01
3.641859820421482e-02	4.319730e-02	2.550249e+00	-3.360919e-01
3.641860201891208e-02	4.319715e-02	2.550249e+00	-3.360918e-01
3.641860297258639e-02	4.319712e-02	2.550249e+00	-3.360918e-01
3.641860487993503e-02	4.319705e-02	2.550249e+00	-3.360918e-01
3.641860869463229e-02	4.319690e-02	2.550248e+00	-3.360918e-01
3.641861632402683e-02	4.319661e-02	2.550248e+00	-3.360917e-01
3.641863158281589e-02	4.319603e-02	2.550246e+00	-3.360916e-01
3.641866210039402e-02	4.319488e-02	2.550244e+00	-3.360913e-01
3.641872313555027e-02	4.319256e-02	2.550240e+00	-3.360909e-01
3.641884520586276e-02	4.318793e-02	2.550231e+00	-3.360898e-01
3.641908934648776e-02	4.317867e-02	2.550212e+00	-3.360879e-01
3.641957762773777e-02	4.316016e-02	2.550176e+00	-3.360839e-01
3.642055419023776e-02	4.312312e-02	2.550103e+00	-3.360759e-01
3.642250731523777e-02	4.304907e-02	2.549957e+00	-3.360599e-01
3.642641356523776e-02	4.290101e-02	2.549666e+00	-3.360280e-01
3.643422606523777e-02	4.260512e-02	2.549083e+00	-3.359641e-01
3.644985106523776e-02	4.201417e-02	2.547918e+00	-3.358366e-01
3.648110106523776e-02	4.083562e-02	2.545590e+00	-3.355821e-01
3.654360106523776e-02	3.849192e-02	2.540945e+00	-3.350752e-01
3.666860106523776e-02	3.385759e-02	2.531692e+00	-3.340703e-01
3.691860106523776e-02	2.479731e-02	2.513338e+00	-3.320992e-01
3.741860106523776e-02	7.479567e-03	2.477219e+00	-3.283350e-01
3.841860106523776e-02	-2.418565e-02	2.407211e+00	-3.216768e-01
3.941860106523776e-02	-5.226602e-02	2.339999e+00	-3.163838e-01
4.041860106523777e-02	-7.724313e-02	2.275379e+00	-3.126690e-01
4.141860106523777e-02	-9.957003e-02	2.213183e+00	-3.106836e-01
4.241860106523777e-02	-1.196689e-01	2.153277e+00	-3.105336e-01
4.341860106523777e-02	-1.379302e-01	2.095555e+00	-3.122934e-01
4.441860106523777e-02	-1.547135e-01	2.039938e+00	-3.160171e-01
4.541860106523777e-02	-1.703485e-01	1.986369e+00	-3.217467e-01
4.641860106523777e-02	-1.851374e-01	1.934811e+00	-3.295202e-01
4.741860106523777e-02	-1.993574e-01	1.885247e+00	-3.393760e-01
4.841860106523777e-02	-2.132630e-01	1.837675e+00	-3.513584e-01
4.941860106523777e-02	-2.270892e-01	1.792113e+00	-3.655199e-01
5.041860106523777e-02	-2.410542e-01	1.748595e+00	-3.819246e-01
5.141860106523777e-02	-2.553619e-01	1.707172e+00	-4.006492e-01
5.241860106523778e-02	-2.702051e-01	1.667917e+00	-4.217845e-01
5.254360106523778e-02	-2.721115e-01	1.663183e+00	-4.246195e-01
5.279360106523778e-02	-2.759480e-01	1.653788e+00	-4.303689e-01
5.285610106523778e-02	-2.769163e-01	1.651466e+00	-4.318361e-01
5.298110106523778e-02	-2.788591e-01	1.646840e+00	-4.347906e-01
5.301235106523777e-02	-2.793472e-01	1.645690e+00	-4.355368e-01
5.307485106523777e-02	-2.803250e-01	1.643395e+00	-4.370341e-01
5.309047606523777e-02	-2.805701e-01	1.642823e+00	-4.374104e-01
5.312172606523777e-02	-2.810606e-01	1.641681e+00	-4.381641e-01
5.312953856523777e-02	-2.811834e-01	1.641395e+00	-4.383530e-01
5.314516356523777e-02	-2.814291e-01	1.640825e+00	-4.387312e-01
5.314565184648777e-02	-2.814367e-01	1.640807e+00	-4.387430e-01
5.314662840898777e-02	-2.814521e-01	1.640772e+00	-4.387667e-01
5.314687254961277e-02	-2.814559e-01	1.640763e+00	-4.387726e-01
5.314736083086277e-02	-2.814636e-01	1.640745e+00	-4.387844e-01
5.314748290117527e-02	-2.814655e-01	1.640740e+00	-4.387873e-01
5.314772704180027e-02	-2.814694e-01	1.640731e+00	-4.387933e-01
5.314778807695652e-02	-2.814703e-01	1.640729e+00	-4.387947e-01
5.314791014726902e-02	-2.814723e-01	1.640725e+00	-4.387977e-01
5.314815428789402e-02	-2.814761e-01	1.640716e+00	-4.388036e-01
5.314821532305027e-02	-2.814771e-01	1.640714e+00	-4.388051e-01
5.314833739336276e-02	-2.814790e-01	1.640709e+00	-4.388081e-01
5.314858153398776e-02	-2.814828e-01	1.640700e+00	-4.388140e-01
5.314906981523777e-02	-2.814905e-01	1.640682e+00	-4.388258e-01
5.315004637773776e-02	-2.815059e-01	1.640647e+00	-4.388494e-01
5.315199950273777e-02	-2.815366e-01	1.640576e+00	-4.388968e-01
5.315590575273776e-02	-2.815981e-01	1.640433e+00	-4.389915e-01
5.316371825273777e-02	-2.817211e-01	1.640149e+00	-4.391810e-01
5.317934325273777e-02	-2.819672e-01	1.639579e+00	-4.395606e-01
5.321059325273776e-02	-2.824601e-01	1.638443e+00	-4.403215e-01
5.327309325273776e-02	-2.834484e-01	1.636177e+00	-4.418510e-01
5.339809325273776e-02	-2.854353e-01	1.631673e+00	-4.449408e-01
5.364809325273776e-02	-2.894515e-01	1.622777e+00	-4.512441e-01
5.414809325273776e-02	-2.976635e-01	1.605438e+00	-4.643527e-01
5.514809325273776e-02	-3.148857e-01	1.572649e+00	-4.926434e-01
5.614809325273776e-02	-3.332988e-01	1.542512e+00	-5.238076e-01
5.714809325273777e-02	-3.530705e-01	1.515227e+00	-5.579978e-01
5.814809325273777e-02	-3.743670e-01	1.491035e+00	-5.953739e-01
5.914809325273777e-02	-3.973544e-01	1.470221e+00	-6.360990e-01
6.014809325273777e-02	-4.221981e-01	1.453119e+00	-6.803334e-01
6.114809325273777e-02	-4.490629e-01	1.440121e+00	-7.282273e-01
6.214809325273777e-02	-4.781109e-01	1.431678e+00	-7.799110e-01
6.314809325273776e-02	-5.094997e-01	1.428312e+00	-8.354821e-01
6.414809325273776e-02	-5.433791e-01	1.430618e+00	-8.949894e-01
6.514809325273777e-02	-5.798857e-01	1.439267e+00	-9.584137e-01
6.614809325273777e-02	-6.191371e-01	1.455009e+00	-1.025644e+00
6.714809325273777e-02	-6.612233e-01	1.478670e+00	-1.096448e+00
6.814809325273777e-02	-7.061962e-01	1.511141e+00	-1.170439e+00
6.914809325273777e-02	-7.540570e-01	1.553366e+00	-1.247038e+00
7.014809325273777e-02	-8.047405e-01	1.606307e+00	-1.325437e+00
7.114809325273777e-02	-8.580975e-01	1.670909e+00	-1.404549e+00
7.214809325273777e-02	-9.138749e-01	1.748034e+00	-1.482980e+00
7.314809325273777e-02	-9.716945e-01	1.838392e+00	-1.558990e+00
7.414809325273777e-02	-1.031032e+00	1.942437e+00	-1.630489e+00
7.514809325273777e-02	-1.091196e+00	2.060251e+00	-1.695041e+00
7.614809325273778e-02	-1.151318e+00	2.191422e+00	-1.749922e+00
7.714809325273778e-02	-1.210341e+00	2.334909e+00	-1.792211e+00
7.814809325273778e-02	-1.267030e+00	2.488934e+00	-1.818943e+00
7.914809325273778e-02	-1.319991e+00	2.650903e+00	-1.827311e+00
8.014809325273778e-02	-1.367717e+00	2.817398e+00	-1.814922e+00
8.114809325273778e-02	-1.408648e+00	2.984255e+00	-1.780069e+00
8.214809325273778e-02	-1.441256e+00	3.146739e+00	-1.721995e+00
8.314809325273778e-02	-1.464141e+00	3.299833e+00	-1.641104e+00
8.414809325273778e-02	-1.476136e+00	3.438597e+00	-1.539073e+00
8.514809325273778e-02	-1.476403e+00	3.558572e+00	-1.418821e+00
8.614809325273778e-02	-1.464515e+00	3.656166e+00	-1.284337e+00
8.714809325273778e-02	-1.440500e+00	3.728955e+00	-1.140369e+00
8.814809325273779e-02	-1.404852e+00	3.775850e+00	-9.920229e-01
8.827309325273779e-02	-1.399525e+00	3.779677e+00	-9.733889e-01
8.852309325273779e-02	-1.388544e+00	3.786531e+00	-9.361824e-01
8.902309325273779e-02	-1.364677e+00	3.795509e+00	-8.623570e-01
9.002309325273779e-02	-1.310013e+00	3.795488e+00	-7.190559e-01
9.102309325273779e-02	-1.247316e+00	3.773409e+00	-5.843216e-01
9.202309325273779e-02	-1.178306e+00	3.732276e+00	-4.610980e-01
9.302309325273779e-02	-1.104773e+00	3.675443e+00	-3.513175e-01
9.402309325273779e-02	-1.028474e+00	3.606303e+00	-2.559446e-01
9.502309325273779e-02	-9.510500e-01	3.528057e+00	-1.751033e-01
9.514809325273779e-02	-9.413595e-01	3.517710e+00	-1.661180e-01
9.539809325273779e-02	-9.220012e-01	3.496844e+00	-1.485808e-01
9.546059325273779e-02	-9.171711e-01	3.491564e+00	-1.443584e-01
9.558559325273779e-02	-9.075192e-01	3.480966e+00	-1.360199e-01
9.561684325273778e-02	-9.051094e-01	3.478302e+00	-1.339751e-01
9.562465575273778e-02	-9.045070e-01	3.477636e+00	-1.334647e-01
9.564028075273778e-02	-9.033024e-01	3.476303e+00	-1.324456e-01
9.564418700273779e-02	-9.030013e-01	3.475970e+00	-1.321914e-01
9.564516356523779e-02	-9.029261e-01	3.475886e+00	-1.321279e-01
9.564711669023779e-02	-9.027755e-01	3.475720e+00	-1.320008e-01
9.565102294023779e-02	-9.024745e-01	3.475386e+00	-1.317469e-01
9.565114501055029e-02	-9.024650e-01	3.475376e+00	-1.317390e-01
9.565138915117528e-02	-9.024462e-01	3.475355e+00	-1.317231e-01
9.565145018633153e-02	-9.024415e-01	3.475350e+00	-1.317192e-01
9.565157225664403e-02	-9.024321e-01	3.475339e+00	-1.317112e-01
9.565160277422216e-02	-9.024298e-01	3.475337e+00	-1.317093e-01
9.565166380937841e-02	-9.024251e-01	3.475331e+00	-1.317053e-01
9.565178587969091e-02	-9.024156e-01	3.475321e+00	-1.316974e-01
9.565203002031590e-02	-9.023968e-01	3.475300e+00	-1.316815e-01
9.565251830156590e-02	-9.023592e-01	3.475258e+00	-1.316498e-01
9.565349486406591e-02	-9.022839e-01	3.475175e+00	-1.315864e-01
9.565544798906590e-02	-9.021334e-01	3.475008e+00	-1.314595e-01
9.565935423906591e-02	-9.018323e-01	3.474674e+00	-1.312061e-01
9.566716673906590e-02	-9.012303e-01	3.474007e+00	-1.306998e-01
9.568279173906591e-02	-9.000266e-01	3.472671e+00	-1.296896e-01
9.571404173906591e-02	-8.976199e-01	3.469995e+00	-1.276791e-01
9.577654173906590e-02	-8.928103e-01	3.464632e+00	-1.236972e-01
9.590154173906590e-02	-8.832077e-01	3.453855e+00	-1.158893e-01
9.615154173906590e-02	-8.640763e-01	3.432118e+00	-1.008874e-01
9.665154173906590e-02	-8.261740e-01	3.388036e+00	-7.326463e-02
9.765154173906590e-02	-7.522600e-01	3.298301e+00	-2.688736e-02
9.865154173906590e-02	-6.814790e-01	3.207631e+00	8.769219e-03
9.965154173906590e-02	-6.144822e-01	3.117264e+00	3.520887e-02
1.006515417390659e-01	-5.517163e-01	3.028081e+00	5.391030e-02
1.016515417390659e-01	-4.934495e-01	2.940677e+00	6.626122e-02
1.026515417390659e-01	-4.397982e-01	2.855423e+00	7.351852e-02
1.036515417390659e-01	-3.907552e-01	2.772522e+00	7.678878e-02
1.046515417390659e-01	-3.462161e-01	2.692061e+00	7.702338e-02
1.056515417390659e-01	-3.060028e-01	2.614043e+00	7.502357e-02
1.066515417390659e-01	-2.698847e-01	2.538422e+00	7.145152e-02
1.076515417390659e-01	-2.375959e-01	2.465122e+00	6.684479e-02
1.086515417390659e-01	-2.088498e-01	2.394049e+00	6.163191e-02
1.096515417390659e-01	-1.833508e-01	2.325106e+00	5.614811e-02
1.106515417390659e-01	-1.608032e-01	2.258196e+00	5.065017e-02
1.116515417390659e-01	-1.409181e-01	2.193226e+00	4.532997e-02
1.126515417390659e-01	-1.234185e-01	2.130111e+00	4.032658e-02
1.136515417390659e-01	-1.080423e-01	2.068771e+00	3.573682e-02
1.146515417390659e-01	-9.454489e-02	2.009134e+00	3.162431e-02
1.156515417390659e-01	-8.270007e-02	1.951134e+00	2.802712e-02
1.166515417390659e-01	-7.230049e-02	1.894712e+00	2.496414e-02
1.176515417390659e-01	-6.315737e-02	1.839813e+00	2.244039e-02
1.186515417390659e-01	-5.509993e-02	1.786387e+00	2.045126e-02
1.196515417390659e-01	-4.797436e-02	1.734387e+00	1.898607e-02
1.206515417390659e-01	-4.164267e-02	1.683771e+00	1.803076e-02
1.216515417390659e-01	-3.598143e-02	1.634497e+00	1.757013e-02
1.226515417390659e-01	-3.088036e-02	1.586527e+00	1.758952e-02
1.236515417390659e-01	-2.624102e-02	1.539824e+00	1.807615e-02
1.246515417390659e-01	-2.197539e-02	1.494356e+00	1.902014e-02
1.256515417390659e-01	-1.800462e-02	1.450087e+00	2.041531e-02
1.266515417390659e-01	-1.425776e-02	1.406988e+00	2.225977e-02
1.276515417390659e-01	-1.067055e-02	1.365027e+00	2.455641e-02
1.286515417390659e-01	-7.184328e-03	1.324176e+00	2.731332e-02
1.296515417390659e-01	-3.745003e-03	1.284407e+00	3.054411e-02
1.306515417390659e-01	-3.020476e-04	1.245693e+00	3.426825e-02
1.316515417390659e-01	3.192401e-03	1.208011e+00	3.851141e-02
1.326515417390659e-01	6.784403e-03	1.171335e+00	4.330580e-02
1.336515417390659e-01	1.051903e-02	1.135645e+00	4.869057e-02
1.346515417390659e-01	1.444114e-02	1.100919e+00	5.471229e-02
1.356515417390659e-01	1.859614e-02	1.067140e+00	6.142543e-02
1.366515417390659e-01	2.303069e-02	1.034290e+00	6.889302e-02
1.376515417390659e-01	2.779347e-02	1.002355e+00	7.718728e-02
1.386515417390659e-01	3.293586e-02	9.713255e-01	8.639056e-02
1.396515417390659e-01	3.851273e-02	9.411919e-01	9.659611e-02
1.406515417390659e-01	4.458316e-02	9.119506e-01	1.079092e-01
1.416515417390659e-01	5.121127e-02	8.836024e-01	1.204484e-01
1.426515417390659e-01	5.846706e-02	8.561535e-01	1.343467e-01
1.436515417390659e-01	6.642728e-02	8.296168e-01	1.497532e-01
1.446515417390659e-01	7.517643e-02	8.040135e-01	1.668346e-01
1.456515417390659e-01	8.480772e-02	7.793748e-01	1.857770e-01
1.466515417390659e-01	9.542429e-02	7.557441e-01	2.067879e-01
1.476515417390659e-01	1.071403e-01	7.331795e-01	2.300982e-01
1.486515417390659e-01	1.200822e-01	7.117575e-01	2.559644e-01
1.496515417390659e-01	1.343902e-01	6.915771e-01	2.846706e-01
1.506515417390659e-01	1.502197e-01	6.727644e-01	3.165310e-01
1.516515417390659e-01	1.677426e-01	6.554797e-01	3.518917e-01
1.526515417390659e-01	1.871490e-01	6.399243e-01	3.911321e-01
1.526671667390659e-01	1.874683e-01	6.396962e-01	3.917781e-01
1.526984167390660e-01	1.881077e-01	6.392408e-01	3.930723e-01
1.527062292390660e-01	1.882680e-01	6.391273e-01	3.933966e-01
1.527081823640660e-01	1.883081e-01	6.390989e-01	3.934777e-01
1.527120886140660e-01	1.883882e-01	6.390422e-01	3.936400e-01
1.527130651765660e-01	1.884083e-01	6.390280e-01	3.936805e-01
1.527150183015660e-01	1.884484e-01	6.389997e-01	3.937617e-01
1.527155065828160e-01	1.884584e-01	6.389926e-01	3.937820e-01
